***BUSMASTER Ver 3.2.2***
***PROTOCOL CAN***
***NOTE: PLEASE DO NOT EDIT THIS DOCUMENT***
***[START LOGGING SESSION]***
***START DATE AND TIME 28:12:2019 10:13:36:639***
***HEX***
***SYSTEM MODE***
***START CHANNEL BAUD RATE***
***CHANNEL 1 - Kvaser - Kvaser Leaf Light HS #0 (Channel 0), Serial Number- 0, Firmware- 0x00000037 0x00020000 - 250000 bps***
***END CHANNEL BAUD RATE***
***START DATABASE FILES***
***END DATABASE FILES***
***<Time><Tx/Rx><Channel><CAN ID><Type><DLC><DataBytes>***
10:13:36:6341 Rx 1 0xCEBFF52 x 8 01 DB 03 D8 0F 00 00 00 
10:13:36:6351 Rx 1 0x18EFB300 x 8 FF FF FF FF FF FF FF FF 
10:13:36:6351 Rx 1 0x18FFD000 x 8 8A 02 FF FF FF FF FF FF 
10:13:36:6441 Rx 1 0xCFF1751 x 8 FF FF FF FF FF FF FF FF 
10:13:36:6441 Rx 1 0xCFF1752 x 8 FF FF FF FF FF FF FF FF 
10:13:36:6451 Rx 1 0x18EFB300 x 8 FF FF FF FF FF FF FF FF 
10:13:36:6451 Rx 1 0x18FFCE00 x 8 FF FF 00 64 FF FF FF FF 
10:13:36:6461 Rx 1 0x18FFD000 x 8 8A 02 FF FF FF FF FF FF 
10:13:36:6471 Rx 1 0x18FFB9B3 x 8 00 00 64 2F C0 FF 00 F0 
10:13:36:6521 Rx 1 0x18FFEF3D x 8 FC FF FF FF FF FF FF FF 
10:13:36:6541 Rx 1 0xCF00A00 x 8 FF FF 00 00 FF FF FF FF 
10:13:36:6551 Rx 1 0x18EFB300 x 8 FF FF FF FF FF FF FF FF 
10:13:36:6551 Rx 1 0x18FF9F00 x 8 FF FF FF 00 00 FF FF 00 
10:13:36:6561 Rx 1 0x18FFD000 x 8 8A 02 FF FF FF FF FF FF 
10:13:36:6641 Rx 1 0xCFF1751 x 8 FF FF FF FF FF FF FF FF 
10:13:36:6641 Rx 1 0xCFF1752 x 8 FF FF FF FF FF FF FF FF 
10:13:36:6651 Rx 1 0x18EFB300 x 8 FF FF FF FF FF FF FF FF 
10:13:36:6651 Rx 1 0x18FFCE00 x 8 FF FF 00 64 FF FF FF FF 
10:13:36:6661 Rx 1 0x18FFD000 x 8 8A 02 FF FF FF FF FF FF 
10:13:36:6671 Rx 1 0x18FFB9B3 x 8 00 00 64 2F C0 FF 00 F0 
10:13:36:6721 Rx 1 0x18FFCD3D x 8 E0 04 4F C3 FF FF FF FF 
10:13:36:6731 Rx 1 0x18FFD53D x 8 00 00 FF FF FF FF FF FF 
10:13:36:6731 Rx 1 0x18FFEF3D x 8 FC FF FF FF FF FF FF FF 
10:13:36:6741 Rx 1 0x18EFB300 x 8 FF FF FF FF FF FF FF FF 
10:13:36:6751 Rx 1 0x18FFD000 x 8 8A 02 FF FF FF FF FF FF 
10:13:36:6841 Rx 1 0xCFF1751 x 8 FF FF FF FF FF FF FF FF 
10:13:36:6841 Rx 1 0xCEBFF51 x 8 02 DB 03 11 10 55 A0 C8 
10:13:36:6851 Rx 1 0xCFF1752 x 8 FF FF FF FF FF FF FF FF 
10:13:36:6851 Rx 1 0xCEBFF52 x 8 02 E9 03 04 10 46 A0 C8 
10:13:36:6861 Rx 1 0x18EFB300 x 8 FF FF FF FF FF FF FF FF 
10:13:36:6871 Rx 1 0x18FFA1B3 x 8 E7 0A 00 D5 E7 0A 10 D5 
10:13:36:6871 Rx 1 0x18FFCE00 x 8 FF FF 00 64 FF FF FF FF 
10:13:36:6881 Rx 1 0x18FFB9B3 x 8 00 00 64 2F C0 FF 00 F0 
10:13:36:6881 Rx 1 0x18FFD000 x 8 8A 02 FF FF FF FF FF FF 
10:13:36:6921 Rx 1 0x18FFEF3D x 8 FC FF FF FF FF FF FF FF 
10:13:36:6941 Rx 1 0x18EFB300 x 8 FF FF FF FF FF FF FF FF 
10:13:36:6951 Rx 1 0x18FFD000 x 8 8A 02 FF FF FF FF FF FF 
10:13:36:7041 Rx 1 0xCFF1751 x 8 FF FF FF FF FF FF FF FF 
10:13:36:7041 Rx 1 0xCF00A00 x 8 FF FF 00 00 FF FF FF FF 
10:13:36:7051 Rx 1 0xCFF1400 x 8 00 FF FF FF FF FF FF FF 
10:13:36:7051 Rx 1 0xCFF1752 x 8 FF FF FF FF FF FF FF FF 
10:13:36:7061 Rx 1 0xCFF6400 x 8 00 FF FF FF FF FF FF FF 
10:13:36:7071 Rx 1 0x10FCFD00 x 8 FF FF FF FF FF FF 00 00 
10:13:36:7071 Rx 1 0x18EFB300 x 8 FF FF FF FF FF FF FF FF 
10:13:36:7081 Rx 1 0x18FFB9B3 x 8 00 00 64 2F C0 FF 00 F0 
10:13:36:7081 Rx 1 0x18FF9F00 x 8 FF FF FF 00 00 FF FF 00 
10:13:36:7091 Rx 1 0x18FFCE00 x 8 FF FF 00 64 FF FF FF FF 
10:13:36:7101 Rx 1 0x18FFCF00 x 8 00 00 00 00 00 00 FF FF 
10:13:36:7101 Rx 1 0x18FFD000 x 8 8A 02 FF FF FF FF FF FF 
10:13:36:7111 Rx 1 0x18FFD800 x 8 FF FF FF FF FF FF FF FF 
10:13:36:7111 Rx 1 0x18FFDC00 x 8 FA C3 01 00 0A 09 00 00 
10:13:36:7121 Rx 1 0x18FFDF00 x 8 FF FF FF FF FF FF FF FF 
10:13:36:7121 Rx 1 0x18FFEF3D x 8 FC FF FF FF FF FF FF FF 
10:13:36:7141 Rx 1 0x18EFB300 x 8 FF FF FF FF FF FF FF FF 
10:13:36:7151 Rx 1 0x18FFD000 x 8 8A 02 FF FF FF FF FF FF 
10:13:36:7241 Rx 1 0xCFF1751 x 8 FF FF FF FF FF FF FF FF 
10:13:36:7241 Rx 1 0xCFF1752 x 8 FF FF FF FF FF FF FF FF 
10:13:36:7251 Rx 1 0x18EFB300 x 8 FF FF FF FF FF FF FF FF 
10:13:36:7251 Rx 1 0x18FFCE00 x 8 FF FF 00 64 FF FF FF FF 
10:13:36:7261 Rx 1 0x18FFD000 x 8 8A 02 FF FF FF FF FF FF 
10:13:36:7281 Rx 1 0x18FFB9B3 x 8 00 00 64 2F C0 FF 00 F0 
10:13:36:7321 Rx 1 0x18FFEF3D x 8 FC FF FF FF FF FF FF FF 
10:13:36:7341 Rx 1 0x18EFB300 x 8 FF FF FF FF FF FF FF FF 
10:13:36:7351 Rx 1 0x18FFD000 x 8 8A 02 FF FF FF FF FF FF 
10:13:36:7441 Rx 1 0xCFF1751 x 8 FF FF FF FF FF FF FF FF 
10:13:36:7441 Rx 1 0xCFF1752 x 8 FF FF FF FF FF FF FF FF 
10:13:36:7451 Rx 1 0x18EFB300 x 8 FF FF FF FF FF FF FF FF 
10:13:36:7451 Rx 1 0x18FFCE00 x 8 FF FF 00 64 FF FF FF FF 
10:13:36:7461 Rx 1 0x18FFD000 x 8 8A 02 FF FF FF FF FF FF 
10:13:36:7481 Rx 1 0x18FFB9B3 x 8 00 00 64 2F C0 FF 00 F0 
10:13:36:7521 Rx 1 0x18FFEF3D x 8 FC FF FF FF FF FF FF FF 
10:13:36:7541 Rx 1 0xCF00A00 x 8 FF FF 00 00 FF FF FF FF 
10:13:36:7551 Rx 1 0x18EFB300 x 8 FF FF FF FF FF FF FF FF 
10:13:36:7551 Rx 1 0x18FF9F00 x 8 FF FF FF 00 00 FF FF 00 
10:13:36:7561 Rx 1 0x18FFD000 x 8 8A 02 FF FF FF FF FF FF 
10:13:36:7641 Rx 1 0xCFF1751 x 8 FF FF FF FF FF FF FF FF 
10:13:36:7641 Rx 1 0xCFF1752 x 8 FF FF FF FF FF FF FF FF 
10:13:36:7651 Rx 1 0x18EFB300 x 8 FF FF FF FF FF FF FF FF 
10:13:36:7651 Rx 1 0x18FFCE00 x 8 FF FF 00 64 FF FF FF FF 
10:13:36:7661 Rx 1 0x18FFD000 x 8 8A 02 FF FF FF FF FF FF 
10:13:36:7681 Rx 1 0x18FFB9B3 x 8 00 00 64 2F C0 FF 00 F0 
10:13:36:7721 Rx 1 0x18FFCD3D x 8 E0 04 4F C3 FF FF FF FF 
10:13:36:7731 Rx 1 0x18FFD53D x 8 00 00 FF FF FF FF FF FF 
10:13:36:7731 Rx 1 0x18FFEF3D x 8 FC FF FF FF FF FF FF FF 
10:13:36:7741 Rx 1 0x18EFB300 x 8 FF FF FF FF FF FF FF FF 
10:13:36:7751 Rx 1 0x18FFD000 x 8 8A 02 FF FF FF FF FF FF 
10:13:36:7841 Rx 1 0xCFF1751 x 8 FF FF FF FF FF FF FF FF 
10:13:36:7841 Rx 1 0xCFF1752 x 8 FF FF FF FF FF FF FF FF 
10:13:36:7851 Rx 1 0x18EFB300 x 8 FF FF FF FF FF FF FF FF 
10:13:36:7851 Rx 1 0x18FFCE00 x 8 FF FF 00 64 FF FF FF FF 
10:13:36:7861 Rx 1 0x18FFD000 x 8 8A 02 FF FF FF FF FF FF 
10:13:36:7891 Rx 1 0x18FFB9B3 x 8 00 00 64 2F C0 FF 00 F0 
10:13:36:7921 Rx 1 0x18FFEF3D x 8 FC FF FF FF FF FF FF FF 
10:13:36:7941 Rx 1 0x18EFB300 x 8 FF FF FF FF FF FF FF FF 
10:13:36:7951 Rx 1 0x18FFD000 x 8 8A 02 FF FF FF FF FF FF 
10:13:36:8041 Rx 1 0xCFF1751 x 8 FF FF FF FF FF FF FF FF 
10:13:36:8041 Rx 1 0xCF00A00 x 8 FF FF 00 00 FF FF FF FF 
10:13:36:8051 Rx 1 0xCFF1400 x 8 00 FF FF FF FF FF FF FF 
10:13:36:8051 Rx 1 0xCFF1752 x 8 FF FF FF FF FF FF FF FF 
10:13:36:8061 Rx 1 0xCFF6400 x 8 00 FF FF FF FF FF FF FF 
10:13:36:8071 Rx 1 0x10FCFD00 x 8 FF FF FF FF FF FF 00 00 
10:13:36:8071 Rx 1 0x18EFB300 x 8 FF FF FF FF FF FF FF FF 
10:13:36:8081 Rx 1 0x18FF9F00 x 8 FF FF FF 00 00 FF FF 00 
10:13:36:8081 Rx 1 0x18FFCE00 x 8 FF FF 00 64 FF FF FF FF 
10:13:36:8091 Rx 1 0x18FFCF00 x 8 00 00 00 00 00 00 FF FF 
10:13:36:8101 Rx 1 0x18FFB9B3 x 8 00 00 64 2F C0 FF 00 F0 
10:13:36:8101 Rx 1 0x18FFD000 x 8 8A 02 FF FF FF FF FF FF 
10:13:36:8111 Rx 1 0x18FFD800 x 8 FF FF FF FF FF FF FF FF 
10:13:36:8111 Rx 1 0x18FFDC00 x 8 FA C3 01 00 0A 09 00 00 
10:13:36:8121 Rx 1 0x18FFDF00 x 8 FF FF FF FF FF FF FF FF 
10:13:36:8131 Rx 1 0x18FFEF3D x 8 FC FF FF FF FF FF FF FF 
10:13:36:8141 Rx 1 0x18EFB300 x 8 FF FF FF FF FF FF FF FF 
10:13:36:8151 Rx 1 0x18FFD000 x 8 8A 02 FF FF FF FF FF FF 
10:13:36:8241 Rx 1 0xCFF1751 x 8 FF FF FF FF FF FF FF FF 
10:13:36:8241 Rx 1 0xCFF1752 x 8 FF FF FF FF FF FF FF FF 
10:13:36:8251 Rx 1 0x18EFB300 x 8 FF FF FF FF FF FF FF FF 
10:13:36:8251 Rx 1 0x18FFCE00 x 8 FF FF 00 64 FF FF FF FF 
10:13:36:8261 Rx 1 0x18FFD000 x 8 8A 02 FF FF FF FF FF FF 
10:13:36:8291 Rx 1 0x18FFB9B3 x 8 00 00 64 2F C0 FF 00 F0 
10:13:36:8321 Rx 1 0x18FFEF3D x 8 FC FF FF FF FF FF FF FF 
10:13:36:8341 Rx 1 0x18EFB300 x 8 FF FF FF FF FF FF FF FF 
10:13:36:8351 Rx 1 0x18FFD000 x 8 8A 02 FF FF FF FF FF FF 
10:13:36:8441 Rx 1 0xCFF1751 x 8 FF FF FF FF FF FF FF FF 
10:13:36:8441 Rx 1 0xCFF1752 x 8 FF FF FF FF FF FF FF FF 
10:13:36:8451 Rx 1 0x18EFB300 x 8 FF FF FF FF FF FF FF FF 
10:13:36:8451 Rx 1 0x18FFCE00 x 8 FF FF 00 64 FF FF FF FF 
10:13:36:8461 Rx 1 0x18FFD000 x 8 8A 02 FF FF FF FF FF FF 
10:13:36:8501 Rx 1 0x18FFB9B3 x 8 00 00 64 2F C0 FF 00 F0 
10:13:36:8521 Rx 1 0x18FFEF3D x 8 FC FF FF FF FF FF FF FF 
10:13:36:8541 Rx 1 0xCF00A00 x 8 FF FF 00 00 FF FF FF FF 
10:13:36:8551 Rx 1 0x18EFB300 x 8 FF FF FF FF FF FF FF FF 
10:13:36:8551 Rx 1 0x18FF9F00 x 8 FF FF FF 00 00 FF FF 00 
10:13:36:8561 Rx 1 0x18FFD000 x 8 8A 02 FF FF FF FF FF FF 
10:13:36:8641 Rx 1 0xCFF1751 x 8 FF FF FF FF FF FF FF FF 
10:13:36:8641 Rx 1 0xCFF1752 x 8 FF FF FF FF FF FF FF FF 
10:13:36:8651 Rx 1 0x18EFB300 x 8 FF FF FF FF FF FF FF FF 
10:13:36:8651 Rx 1 0x18FFCE00 x 8 FF FF 00 64 FF FF FF FF 
10:13:36:8661 Rx 1 0x18FFD000 x 8 8A 02 FF FF FF FF FF FF 
10:13:36:8701 Rx 1 0x18FFB9B3 x 8 00 00 64 2F C0 FF 00 F0 
10:13:36:8721 Rx 1 0x18FFCD3D x 8 E0 04 4F C3 FF FF FF FF 
10:13:36:8731 Rx 1 0x18FFD53D x 8 00 00 FF FF FF FF FF FF 
10:13:36:8731 Rx 1 0x18FFEF3D x 8 FC FF FF FF FF FF FF FF 
10:13:36:8741 Rx 1 0x18EFB300 x 8 FF FF FF FF FF FF FF FF 
10:13:36:8751 Rx 1 0x18FFD000 x 8 8A 02 FF FF FF FF FF FF 
10:13:36:8841 Rx 1 0xCFF1751 x 8 FF FF FF FF FF FF FF FF 
10:13:36:8841 Rx 1 0xCFF1752 x 8 FF FF FF FF FF FF FF FF 
10:13:36:8851 Rx 1 0x18EFB300 x 8 FF FF FF FF FF FF FF FF 
10:13:36:8851 Rx 1 0x18FFCE00 x 8 FF FF 00 64 FF FF FF FF 
10:13:36:8861 Rx 1 0x18FFD000 x 8 8A 02 FF FF FF FF FF FF 
10:13:36:8901 Rx 1 0x18FFB9B3 x 8 00 00 64 2F C0 FF 00 F0 
10:13:36:8921 Rx 1 0x18FFEF3D x 8 FC FF FF FF FF FF FF FF 
10:13:36:8941 Rx 1 0x18EFB300 x 8 FF FF FF FF FF FF FF FF 
10:13:36:8951 Rx 1 0x18FFD000 x 8 8A 02 FF FF FF FF FF FF 
10:13:36:9041 Rx 1 0xCFF1751 x 8 FF FF FF FF FF FF FF FF 
10:13:36:9041 Rx 1 0xCF00A00 x 8 FF FF 00 00 FF FF FF FF 
10:13:36:9051 Rx 1 0xCFF1400 x 8 00 FF FF FF FF FF FF FF 
10:13:36:9051 Rx 1 0xCFF1752 x 8 FF FF FF FF FF FF FF FF 
10:13:36:9061 Rx 1 0xCFF6400 x 8 00 FF FF FF FF FF FF FF 
10:13:36:9071 Rx 1 0x10FCFD00 x 8 FF FF FF FF FF FF 00 00 
10:13:36:9071 Rx 1 0x18EFB300 x 8 FF FF FF FF FF FF FF FF 
10:13:36:9081 Rx 1 0x18FEDB00 x 8 E9 06 FF FF FF FF FF FF 
10:13:36:9081 Rx 1 0x18FEEF00 x 8 00 FF FF FF FF FF FF FF 
10:13:36:9091 Rx 1 0x18FEF600 x 8 FF 32 FF FF FF FF FF FF 
10:13:36:9101 Rx 1 0x18FF9F00 x 8 FF FF FF 00 00 FF FF 00 
10:13:36:9101 Rx 1 0x18FFA000 x 8 01 00 FF FF FF FF FF FF 
10:13:36:9111 Rx 1 0x18FFB9B3 x 8 00 00 64 2F C0 FF 00 F0 
10:13:36:9111 Rx 1 0x18FFCE00 x 8 FF FF 00 64 FF FF FF FF 
10:13:36:9121 Rx 1 0x18FFCF00 x 8 00 00 00 00 00 00 FF FF 
10:13:36:9131 Rx 1 0x18FFD000 x 8 8A 02 FF FF FF FF FF FF 
10:13:36:9131 Rx 1 0x18FFD800 x 8 FF FF FF FF FF FF FF FF 
10:13:36:9141 Rx 1 0x18FFDC00 x 8 FA C3 01 00 0A 09 00 00 
10:13:36:9141 Rx 1 0x18EFB300 x 8 FF FF FF FF FF FF FF FF 
10:13:36:9151 Rx 1 0x18FFD000 x 8 8A 02 FF FF FF FF FF FF 
10:13:36:9151 Rx 1 0x18FFDF00 x 8 FF FF FF FF FF FF FF FF 
10:13:36:9161 Rx 1 0x18FFEF3D x 8 FC FF FF FF FF FF FF FF 
10:13:36:9241 Rx 1 0xCFF1751 x 8 FF FF FF FF FF FF FF FF 
10:13:36:9241 Rx 1 0xCFF1752 x 8 FF FF FF FF FF FF FF FF 
10:13:36:9251 Rx 1 0x18EFB300 x 8 FF FF FF FF FF FF FF FF 
10:13:36:9251 Rx 1 0x18FFCE00 x 8 FF FF 00 64 FF FF FF FF 
10:13:36:9261 Rx 1 0x18FFD000 x 8 8A 02 FF FF FF FF FF FF 
10:13:36:9311 Rx 1 0x18FFB9B3 x 8 00 00 64 2F C0 FF 00 F0 
10:13:36:9321 Rx 1 0x18FFEF3D x 8 FC FF FF FF FF FF FF FF 
10:13:36:9341 Rx 1 0x18EFB300 x 8 FF FF FF FF FF FF FF FF 
10:13:36:9351 Rx 1 0x18FFD000 x 8 8A 02 FF FF FF FF FF FF 
10:13:36:9441 Rx 1 0xCFF1751 x 8 FF FF FF FF FF FF FF FF 
10:13:36:9441 Rx 1 0xCFF1752 x 8 FF FF FF FF FF FF FF FF 
10:13:36:9451 Rx 1 0x18EFB300 x 8 FF FF FF FF FF FF FF FF 
10:13:36:9451 Rx 1 0x18FFCE00 x 8 FF FF 00 64 FF FF FF FF 
10:13:36:9461 Rx 1 0x18FFD000 x 8 8A 02 FF FF FF FF FF FF 
10:13:36:9511 Rx 1 0x18FFB9B3 x 8 00 00 64 2F C0 FF 00 F0 
10:13:36:9521 Rx 1 0x18FFEF3D x 8 FC FF FF FF FF FF FF FF 
10:13:36:9541 Rx 1 0xCF00A00 x 8 FF FF 00 00 FF FF FF FF 
10:13:36:9551 Rx 1 0x18EFB300 x 8 FF FF FF FF FF FF FF FF 
10:13:36:9551 Rx 1 0x18FF9F00 x 8 FF FF FF 00 00 FF FF 00 
10:13:36:9561 Rx 1 0x18FFD000 x 8 8A 02 FF FF FF FF FF FF 
10:13:36:9641 Rx 1 0xCFF1751 x 8 FF FF FF FF FF FF FF FF 
10:13:36:9641 Rx 1 0xCFF1752 x 8 FF FF FF FF FF FF FF FF 
10:13:36:9651 Rx 1 0x18EFB300 x 8 FF FF FF FF FF FF FF FF 
10:13:36:9651 Rx 1 0x18FFCE00 x 8 FF FF 00 64 FF FF FF FF 
10:13:36:9661 Rx 1 0x18FFD000 x 8 8A 02 FF FF FF FF FF FF 
10:13:36:9721 Rx 1 0x18FFB9B3 x 8 00 00 64 2F C0 FF 00 F0 
10:13:36:9721 Rx 1 0x18FFCD3D x 8 E0 04 4F C3 FF FF FF FF 
10:13:36:9731 Rx 1 0x18FFD53D x 8 00 00 FF FF FF FF FF FF 
10:13:36:9731 Rx 1 0x18FFEF3D x 8 FC FF FF FF FF FF FF FF 
10:13:36:9741 Rx 1 0x18EFB300 x 8 FF FF FF FF FF FF FF FF 
10:13:36:9751 Rx 1 0x18FFD000 x 8 8A 02 FF FF FF FF FF FF 
10:13:36:9841 Rx 1 0xCFF1751 x 8 FF FF FF FF FF FF FF FF 
10:13:36:9841 Rx 1 0xCFF1752 x 8 FF FF FF FF FF FF FF FF 
10:13:36:9851 Rx 1 0x18EFB300 x 8 FF FF FF FF FF FF FF FF 
10:13:36:9851 Rx 1 0x18FFCE00 x 8 FF FF 00 64 FF FF FF FF 
10:13:36:9861 Rx 1 0x18FFD000 x 8 8A 02 FF FF FF FF FF FF 
10:13:36:9921 Rx 1 0x18FFB9B3 x 8 00 00 64 2F C0 FF 00 F0 
10:13:36:9921 Rx 1 0x18FFEF3D x 8 FC FF FF FF FF FF FF FF 
10:13:36:9941 Rx 1 0x18EFB300 x 8 FF FF FF FF FF FF FF FF 
10:13:36:9951 Rx 1 0x18FFD000 x 8 8A 02 FF FF FF FF FF FF 
10:13:37:0041 Rx 1 0xCFF1751 x 8 FF FF FF FF FF FF FF FF 
10:13:37:0041 Rx 1 0xCF00A00 x 8 FF FF 00 00 FF FF FF FF 
10:13:37:0051 Rx 1 0xCFF1400 x 8 00 FF FF FF FF FF FF FF 
10:13:37:0051 Rx 1 0xCFF1752 x 8 FF FF FF FF FF FF FF FF 
10:13:37:0061 Rx 1 0xCFF6400 x 8 00 FF FF FF FF FF FF FF 
10:13:37:0071 Rx 1 0x10FCFD00 x 8 FF FF FF FF FF FF 00 00 
10:13:37:0071 Rx 1 0x18EFB300 x 8 FF FF FF FF FF FF FF FF 
10:13:37:0081 Rx 1 0x18FF9F00 x 8 FF FF FF 00 00 FF FF 00 
10:13:37:0081 Rx 1 0x18FFCE00 x 8 FF FF 00 64 FF FF FF FF 
10:13:37:0091 Rx 1 0x18FFCF00 x 8 00 00 00 00 00 00 FF FF 
10:13:37:0101 Rx 1 0x18FFD000 x 8 8A 02 FF FF FF FF FF FF 
10:13:37:0101 Rx 1 0x18FFD800 x 8 FF FF FF FF FF FF FF FF 
10:13:37:0111 Rx 1 0x18FFDC00 x 8 FA C3 01 00 0A 09 00 00 
10:13:37:0111 Rx 1 0x18FFDF00 x 8 FF FF FF FF FF FF FF FF 
10:13:37:0121 Rx 1 0x18FFEF3D x 8 FC FF FF FF FF FF FF FF 
10:13:37:0131 Rx 1 0x18FFB9B3 x 8 00 00 64 2F C0 FF 00 F0 
10:13:37:0141 Rx 1 0x18EFB300 x 8 FF FF FF FF FF FF FF FF 
10:13:37:0151 Rx 1 0x18FFD000 x 8 8A 02 FF FF FF FF FF FF 
10:13:37:0241 Rx 1 0xCFF1751 x 8 FF FF FF FF FF FF FF FF 
10:13:37:0241 Rx 1 0xCFF1752 x 8 FF FF FF FF FF FF FF FF 
10:13:37:0251 Rx 1 0x18EFB300 x 8 FF FF FF FF FF FF FF FF 
10:13:37:0251 Rx 1 0x18FFCE00 x 8 FF FF 00 64 FF FF FF FF 
10:13:37:0261 Rx 1 0x18FFD000 x 8 8A 02 FF FF FF FF FF FF 
10:13:37:0321 Rx 1 0x18FFEF3D x 8 FC FF FF FF FF FF FF FF 
10:13:37:0331 Rx 1 0x18FFB9B3 x 8 00 00 64 2F C0 FF 00 F0 
10:13:37:0341 Rx 1 0x18EFB300 x 8 FF FF FF FF FF FF FF FF 
10:13:37:0351 Rx 1 0x18FFD000 x 8 8A 02 FF FF FF FF FF FF 
10:13:37:0441 Rx 1 0xCFF1751 x 8 FF FF FF FF FF FF FF FF 
10:13:37:0441 Rx 1 0xCFF1752 x 8 FF FF FF FF FF FF FF FF 
10:13:37:0451 Rx 1 0x18EFB300 x 8 FF FF FF FF FF FF FF FF 
10:13:37:0451 Rx 1 0x18FFCE00 x 8 FF FF 00 64 FF FF FF FF 
10:13:37:0461 Rx 1 0x18FFD000 x 8 8A 02 FF FF FF FF FF FF 
10:13:37:0521 Rx 1 0x18FFEF3D x 8 FC FF FF FF FF FF FF FF 
10:13:37:0531 Rx 1 0x18FFB9B3 x 8 00 00 64 2F C0 FF 00 F0 
10:13:37:0541 Rx 1 0xCF00A00 x 8 FF FF 00 00 FF FF FF FF 
10:13:37:0551 Rx 1 0x18EFB300 x 8 FF FF FF FF FF FF FF FF 
10:13:37:0551 Rx 1 0x18FF9F00 x 8 FF FF FF 00 00 FF FF 00 
10:13:37:0561 Rx 1 0x18FFD000 x 8 8A 02 FF FF FF FF FF FF 
10:13:37:0641 Rx 1 0xCFF1751 x 8 FF FF FF FF FF FF FF FF 
10:13:37:0641 Rx 1 0xCFF1752 x 8 FF FF FF FF FF FF FF FF 
10:13:37:0651 Rx 1 0x18EFB300 x 8 FF FF FF FF FF FF FF FF 
10:13:37:0651 Rx 1 0x18FFCE00 x 8 FF FF 00 64 FF FF FF FF 
10:13:37:0661 Rx 1 0x18FFD000 x 8 8A 02 FF FF FF FF FF FF 
10:13:37:0721 Rx 1 0x18FDB23D x 8 FF FF FF FF 00 00 FF FF 
10:13:37:0731 Rx 1 0x18FDB43D x 8 35 28 E2 27 FF FF FF FF 
10:13:37:0731 Rx 1 0x18FFB9B3 x 8 00 00 64 2F C0 FF 00 F0 
10:13:37:0741 Rx 1 0x18FFCD3D x 8 E0 04 4F C3 FF FF FF FF 
10:13:37:0741 Rx 1 0x18EFB300 x 8 FF FF FF FF FF FF FF FF 
10:13:37:0751 Rx 1 0x18FFD000 x 8 8A 02 FF FF FF FF FF FF 
10:13:37:0761 Rx 1 0x18FFD53D x 8 00 00 FF FF FF FF FF FF 
10:13:37:0761 Rx 1 0x18FFEF3D x 8 FC FF FF FF FF FF FF FF 
10:13:37:0841 Rx 1 0xCFF1751 x 8 FF FF FF FF FF FF FF FF 
10:13:37:0841 Rx 1 0xCFF1752 x 8 FF FF FF FF FF FF FF FF 
10:13:37:0851 Rx 1 0x18EFB300 x 8 FF FF FF FF FF FF FF FF 
10:13:37:0851 Rx 1 0x18FFCE00 x 8 FF FF 00 64 FF FF FF FF 
10:13:37:0861 Rx 1 0x18FFD000 x 8 8A 02 FF FF FF FF FF FF 
10:13:37:0921 Rx 1 0x18FFEF3D x 8 FC FF FF FF FF FF FF FF 
10:13:37:0931 Rx 1 0x18FFB9B3 x 8 00 00 64 2F C0 FF 00 F0 
10:13:37:0941 Rx 1 0x18EFB300 x 8 FF FF FF FF FF FF FF FF 
10:13:37:0951 Rx 1 0x18FFD000 x 8 8A 02 FF FF FF FF FF FF 
10:13:37:1041 Rx 1 0xCFF1751 x 8 FF FF FF FF FF FF FF FF 
10:13:37:1041 Rx 1 0xCF00A00 x 8 FF FF 00 00 FF FF FF FF 
10:13:37:1051 Rx 1 0xCFF1400 x 8 00 FF FF FF FF FF FF FF 
10:13:37:1051 Rx 1 0xCFF1752 x 8 FF FF FF FF FF FF FF FF 
10:13:37:1061 Rx 1 0xCFF6400 x 8 00 FF FF FF FF FF FF FF 
10:13:37:1071 Rx 1 0x10FCFD00 x 8 FF FF FF FF FF FF 00 00 
10:13:37:1071 Rx 1 0x18EFB300 x 8 FF FF FF FF FF FF FF FF 
10:13:37:1081 Rx 1 0x18FF9F00 x 8 FF FF FF 00 00 FF FF 00 
10:13:37:1081 Rx 1 0x18FFCE00 x 8 FF FF 00 64 FF FF FF FF 
10:13:37:1091 Rx 1 0x18FFCF00 x 8 00 00 00 00 00 00 FF FF 
10:13:37:1101 Rx 1 0x18FFD000 x 8 8A 02 FF FF FF FF FF FF 
10:13:37:1101 Rx 1 0x18FFD800 x 8 FF FF FF FF FF FF FF FF 
10:13:37:1111 Rx 1 0x18FFDC00 x 8 FA C3 01 00 0A 09 00 00 
10:13:37:1111 Rx 1 0x18FFDF00 x 8 FF FF FF FF FF FF FF FF 
10:13:37:1121 Rx 1 0x18FFEF3D x 8 FC FF FF FF FF FF FF FF 
10:13:37:1141 Rx 1 0x18FFB9B3 x 8 00 00 64 2F C0 FF 00 F0 
10:13:37:1141 Rx 1 0x18EFB300 x 8 FF FF FF FF FF FF FF FF 
10:13:37:1151 Rx 1 0x18FFD000 x 8 8A 02 FF FF FF FF FF FF 
10:13:37:1241 Rx 1 0xCFF1751 x 8 FF FF FF FF FF FF FF FF 
10:13:37:1241 Rx 1 0xCFF1752 x 8 FF FF FF FF FF FF FF FF 
10:13:37:1251 Rx 1 0x18EFB300 x 8 FF FF FF FF FF FF FF FF 
10:13:37:1251 Rx 1 0x18FFCE00 x 8 FF FF 00 64 FF FF FF FF 
10:13:37:1261 Rx 1 0x18FFD000 x 8 8A 02 FF FF FF FF FF FF 
10:13:37:1321 Rx 1 0x18FFEF3D x 8 FC FF FF FF FF FF FF FF 
10:13:37:1341 Rx 1 0x18EFB300 x 8 FF FF FF FF FF FF FF FF 
10:13:37:1351 Rx 1 0x18FFB9B3 x 8 00 00 64 2F C0 FF 00 F0 
10:13:37:1351 Rx 1 0x18FFD000 x 8 8A 02 FF FF FF FF FF FF 
10:13:37:1441 Rx 1 0xCFF1751 x 8 FF FF FF FF FF FF FF FF 
10:13:37:1441 Rx 1 0xCFF1752 x 8 FF FF FF FF FF FF FF FF 
10:13:37:1451 Rx 1 0x18EFB300 x 8 FF FF FF FF FF FF FF FF 
10:13:37:1451 Rx 1 0x18FFCE00 x 8 FF FF 00 64 FF FF FF FF 
10:13:37:1461 Rx 1 0x18FFD000 x 8 8A 02 FF FF FF FF FF FF 
10:13:37:1521 Rx 1 0x18FFEF3D x 8 FC FF FF FF FF FF FF FF 
10:13:37:1541 Rx 1 0xCF00A00 x 8 FF FF 00 00 FF FF FF FF 
10:13:37:1551 Rx 1 0x18EFB300 x 8 FF FF FF FF FF FF FF FF 
10:13:37:1551 Rx 1 0x18FF9F00 x 8 FF FF FF 00 00 FF FF 00 
10:13:37:1561 Rx 1 0x18FFB9B3 x 8 00 00 64 2F C0 FF 00 F0 
10:13:37:1561 Rx 1 0x18FFD000 x 8 8A 02 FF FF FF FF FF FF 
10:13:37:1641 Rx 1 0xCFF1751 x 8 FF FF FF FF FF FF FF FF 
10:13:37:1641 Rx 1 0xCFF1752 x 8 FF FF FF FF FF FF FF FF 
10:13:37:1651 Rx 1 0x18EFB300 x 8 FF FF FF FF FF FF FF FF 
10:13:37:1651 Rx 1 0x18FFCE00 x 8 FF FF 00 64 FF FF FF FF 
10:13:37:1661 Rx 1 0x18FFD000 x 8 8A 02 FF FF FF FF FF FF 
10:13:37:1721 Rx 1 0x18FFCD3D x 8 E0 04 4F C3 FF FF FF FF 
10:13:37:1731 Rx 1 0x18FFD53D x 8 00 00 FF FF FF FF FF FF 
10:13:37:1731 Rx 1 0x18FFEF3D x 8 FC FF FF FF FF FF FF FF 
10:13:37:1741 Rx 1 0x18EFB300 x 8 FF FF FF FF FF FF FF FF 
10:13:37:1751 Rx 1 0x18FFB9B3 x 8 00 00 64 2F C0 FF 00 F0 
10:13:37:1751 Rx 1 0x18FFD000 x 8 8A 02 FF FF FF FF FF FF 
10:13:37:1841 Rx 1 0xCFF1751 x 8 FF FF FF FF FF FF FF FF 
10:13:37:1841 Rx 1 0xCFF1752 x 8 FF FF FF FF FF FF FF FF 
10:13:37:1851 Rx 1 0x18EFB300 x 8 FF FF FF FF FF FF FF FF 
10:13:37:1851 Rx 1 0x18FFCE00 x 8 FF FF 00 64 FF FF FF FF 
10:13:37:1861 Rx 1 0x18FFD000 x 8 8A 02 FF FF FF FF FF FF 
10:13:37:1891 Rx 1 0x18FFA1B3 x 8 E7 0A 07 D5 E7 0A 0D D5 
10:13:37:1921 Rx 1 0x18FFEF3D x 8 FC FF FF FF FF FF FF FF 
10:13:37:1941 Rx 1 0x18EFB300 x 8 FF FF FF FF FF FF FF FF 
10:13:37:1951 Rx 1 0x18FFD000 x 8 8A 02 FF FF FF FF FF FF 
10:13:37:1951 Rx 1 0x18FFB9B3 x 8 00 00 64 2F C0 FF 00 F0 
10:13:37:2041 Rx 1 0xCFF1751 x 8 FF FF FF FF FF FF FF FF 
10:13:37:2041 Rx 1 0xCF00A00 x 8 FF FF 00 00 FF FF FF FF 
10:13:37:2051 Rx 1 0xCFF1400 x 8 00 FF FF FF FF FF FF FF 
10:13:37:2051 Rx 1 0xCFF1752 x 8 FF FF FF FF FF FF FF FF 
10:13:37:2061 Rx 1 0xCFF6400 x 8 00 FF FF FF FF FF FF FF 
10:13:37:2071 Rx 1 0x10FCFD00 x 8 FF FF FF FF FF FF 00 00 
10:13:37:2071 Rx 1 0x18EFB300 x 8 FF FF FF FF FF FF FF FF 
10:13:37:2081 Rx 1 0x18FF9F00 x 8 FF FF FF 00 00 FF FF 00 
10:13:37:2081 Rx 1 0x18FFCE00 x 8 FF FF 00 64 FF FF FF FF 
10:13:37:2091 Rx 1 0x18FFCF00 x 8 00 00 00 00 00 00 FF FF 
10:13:37:2101 Rx 1 0x18FFD000 x 8 8A 02 FF FF FF FF FF FF 
10:13:37:2101 Rx 1 0x18FFD800 x 8 FF FF FF FF FF FF FF FF 
10:13:37:2111 Rx 1 0x18FFDC00 x 8 FA C3 01 00 0A 09 00 00 
10:13:37:2111 Rx 1 0x18FFDF00 x 8 FF FF FF FF FF FF FF FF 
10:13:37:2121 Rx 1 0x18FFEF3D x 8 FC FF FF FF FF FF FF FF 
10:13:37:2141 Rx 1 0x18EFB300 x 8 FF FF FF FF FF FF FF FF 
10:13:37:2151 Rx 1 0x18FFD000 x 8 8A 02 FF FF FF FF FF FF 
10:13:37:2151 Rx 1 0x18FFB9B3 x 8 00 00 64 2F C0 FF 00 F0 
10:13:37:2241 Rx 1 0xCFF1751 x 8 FF FF FF FF FF FF FF FF 
10:13:37:2241 Rx 1 0xCFF1752 x 8 FF FF FF FF FF FF FF FF 
10:13:37:2251 Rx 1 0x18EFB300 x 8 FF FF FF FF FF FF FF FF 
10:13:37:2251 Rx 1 0x18FFCE00 x 8 FF FF 00 64 FF FF FF FF 
10:13:37:2261 Rx 1 0x18FFD000 x 8 8A 02 FF FF FF FF FF FF 
10:13:37:2321 Rx 1 0x18FFEF3D x 8 FC FF FF FF FF FF FF FF 
10:13:37:2341 Rx 1 0x18EFB300 x 8 FF FF FF FF FF FF FF FF 
10:13:37:2351 Rx 1 0x18FFD000 x 8 8A 02 FF FF FF FF FF FF 
10:13:37:2361 Rx 1 0x18FFB9B3 x 8 00 00 64 2F C0 FF 00 F0 
10:13:37:2441 Rx 1 0xCFF1751 x 8 FF FF FF FF FF FF FF FF 
10:13:37:2441 Rx 1 0xCFF1752 x 8 FF FF FF FF FF FF FF FF 
10:13:37:2451 Rx 1 0x18EFB300 x 8 FF FF FF FF FF FF FF FF 
10:13:37:2451 Rx 1 0x18FFCE00 x 8 FF FF 00 64 FF FF FF FF 
10:13:37:2461 Rx 1 0x18FFD000 x 8 8A 02 FF FF FF FF FF FF 
10:13:37:2521 Rx 1 0x18FFEF3D x 8 FC FF FF FF FF FF FF FF 
10:13:37:2541 Rx 1 0xCF00A00 x 8 FF FF 00 00 FF FF FF FF 
10:13:37:2551 Rx 1 0x18EFB300 x 8 FF FF FF FF FF FF FF FF 
10:13:37:2551 Rx 1 0x18FF9F00 x 8 FF FF FF 00 00 FF FF 00 
10:13:37:2561 Rx 1 0x18FFD000 x 8 8A 02 FF FF FF FF FF FF 
10:13:37:2561 Rx 1 0x18FFB9B3 x 8 00 00 64 2F C0 FF 00 F0 
10:13:37:2641 Rx 1 0xCFF1751 x 8 FF FF FF FF FF FF FF FF 
10:13:37:2641 Rx 1 0xCFF1752 x 8 FF FF FF FF FF FF FF FF 
10:13:37:2651 Rx 1 0x18EFB300 x 8 FF FF FF FF FF FF FF FF 
10:13:37:2651 Rx 1 0x18FFCE00 x 8 FF FF 00 64 FF FF FF FF 
10:13:37:2661 Rx 1 0x18FFD000 x 8 8A 02 FF FF FF FF FF FF 
10:13:37:2721 Rx 1 0x18FFCD3D x 8 E0 04 4F C3 FF FF FF FF 
10:13:37:2731 Rx 1 0x18FFD53D x 8 00 00 FF FF FF FF FF FF 
10:13:37:2731 Rx 1 0x18FFEF3D x 8 FC FF FF FF FF FF FF FF 
10:13:37:2741 Rx 1 0x18EFB300 x 8 FF FF FF FF FF FF FF FF 
10:13:37:2751 Rx 1 0x18FFD000 x 8 8A 02 FF FF FF FF FF FF 
10:13:37:2761 Rx 1 0x18FFB9B3 x 8 00 00 64 2F C0 FF 00 F0 
10:13:37:2841 Rx 1 0xCFF1751 x 8 FF FF FF FF FF FF FF FF 
10:13:37:2841 Rx 1 0xCFF1752 x 8 FF FF FF FF FF FF FF FF 
10:13:37:2851 Rx 1 0x18EFB300 x 8 FF FF FF FF FF FF FF FF 
10:13:37:2851 Rx 1 0x18FFCE00 x 8 FF FF 00 64 FF FF FF FF 
10:13:37:2861 Rx 1 0x18FFD000 x 8 8A 02 FF FF FF FF FF FF 
10:13:37:2921 Rx 1 0x18FFEF3D x 8 FC FF FF FF FF FF FF FF 
10:13:37:2941 Rx 1 0x18EFB300 x 8 FF FF FF FF FF FF FF FF 
10:13:37:2951 Rx 1 0x18FFD000 x 8 8A 02 FF FF FF FF FF FF 
10:13:37:2961 Rx 1 0x18FFB9B3 x 8 00 00 64 2F C0 FF 00 F0 
10:13:37:3041 Rx 1 0xCFF1751 x 8 FF FF FF FF FF FF FF FF 
10:13:37:3041 Rx 1 0xCF00A00 x 8 FF FF 00 00 FF FF FF FF 
10:13:37:3051 Rx 1 0xCFF1400 x 8 00 FF FF FF FF FF FF FF 
10:13:37:3051 Rx 1 0xCFF1752 x 8 FF FF FF FF FF FF FF FF 
10:13:37:3061 Rx 1 0xCFF6400 x 8 00 FF FF FF FF FF FF FF 
10:13:37:3071 Rx 1 0x10FCFD00 x 8 FF FF FF FF FF FF 00 00 
10:13:37:3071 Rx 1 0x18EFB300 x 8 FF FF FF FF FF FF FF FF 
10:13:37:3081 Rx 1 0x18FF9F00 x 8 FF FF FF 00 00 FF FF 00 
10:13:37:3081 Rx 1 0x18FFCE00 x 8 FF FF 00 64 FF FF FF FF 
10:13:37:3091 Rx 1 0x18FFCF00 x 8 00 00 00 00 00 00 FF FF 
10:13:37:3101 Rx 1 0x18FFD000 x 8 8A 02 FF FF FF FF FF FF 
10:13:37:3101 Rx 1 0x18FFD800 x 8 FF FF FF FF FF FF FF FF 
10:13:37:3111 Rx 1 0x18FFDC00 x 8 FA C3 01 00 0A 09 00 00 
10:13:37:3111 Rx 1 0x18FFDF00 x 8 FF FF FF FF FF FF FF FF 
10:13:37:3121 Rx 1 0x18FFEF3D x 8 FC FF FF FF FF FF FF FF 
10:13:37:3141 Rx 1 0x18EFB300 x 8 FF FF FF FF FF FF FF FF 
10:13:37:3151 Rx 1 0x18FFD000 x 8 8A 02 FF FF FF FF FF FF 
